
**** 08/18/21 21:50:46 ******* PSpice Lite (March 2016) ******* ID# 10813 ****

 ** Profile: "SCHEMATIC1-ppp"  [ E:\Semester 6\PE LAB\LAB09 Open Ended\open-pspicefiles\schematic1\ppp.sim ] 


 ****     CIRCUIT DESCRIPTION


******************************************************************************




** Creating circuit file "ppp.cir" 
** WARNING: THIS AUTOMATICALLY GENERATED FILE MAY BE OVERWRITTEN BY SUBSEQUENT SIMULATIONS

*Libraries: 
* Profile Libraries :
* Local Libraries :
* From [PSPICE NETLIST] section of C:\Users\faiza\AppData\Roaming\SPB_Data\cdssetup\OrCAD_PSpice\17.2.0\PSpice.ini file:
.lib "nomd.lib" 

*Analysis directives: 
.TRAN  0 40ms 0 0.01 
.OPTIONS ADVCONV
.PROBE64 V(alias(*)) I(alias(*)) W(alias(*)) D(alias(*)) NOISE(alias(*)) 
.INC "..\SCHEMATIC1.net" 



**** INCLUDING SCHEMATIC1.net ****
* source OPEN
V_V3         N12496 0  AC 0
+SIN 0 325 50 0 0 0
C_C1         0 N11683  1000uF  TC=0,0 
D_D2         0 N11747 D1N4002 
D_D4         0 N11751 D1N4002 
D_D3         N11751 N11683 D1N4002 
D_D1         N11747 N11683 D1N4002 
R_R2         N12496 N12060  10 TC=0,0 
X_TX1    N12060 0 N11747 N11751 SCHEMATIC1_TX1 
X_U1         N11683 N14220 N18082 LM7805C
C_C2         0 N14220  0.01uF  TC=0,0 
R_R3         0 N11683  300 TC=0,0 
R_R4         0 N18082  10 TC=0,0 

.subckt SCHEMATIC1_TX1 1 2 3 4  
K_TX1         L1_TX1 L2_TX1 1
L1_TX1         1 2 65.179H
L2_TX1         3 4 100mH
.ends SCHEMATIC1_TX1

**** RESUMING ppp.cir ****
.END

**** 08/18/21 21:50:46 ******* PSpice Lite (March 2016) ******* ID# 10813 ****

 ** Profile: "SCHEMATIC1-ppp"  [ E:\Semester 6\PE LAB\LAB09 Open Ended\open-pspicefiles\schematic1\ppp.sim ] 


 ****     Diode MODEL PARAMETERS


******************************************************************************




               D1N4002         X_U1.x1.Dlim    X_U1.x1.Dz      
          IS   14.110000E-09   10.000000E-15   50.000000E-15 
           N    1.984                                        
         ISR  100.000000E-12                                 
         IKF   94.81                                         
          BV  100.1                             7.11         
         IBV   10                              50.000000E-09 
          RS     .03389                         3            
          TT    4.761000E-06                                 
         CJO   51.170000E-12                                 
          VJ     .3905           .7                          
           M     .2762                                       


**** 08/18/21 21:50:46 ******* PSpice Lite (March 2016) ******* ID# 10813 ****

 ** Profile: "SCHEMATIC1-ppp"  [ E:\Semester 6\PE LAB\LAB09 Open Ended\open-pspicefiles\schematic1\ppp.sim ] 


 ****     BJT MODEL PARAMETERS


******************************************************************************




               X_U1.x1.Npn1    
               NPN             
       LEVEL    1            
          IS   10.000000E-15 
          BF   50            
          NF    1            
          BR    1            
          NR    1            
         ISS    0            
          RE    0            
          RC    0            
         CJE    0            
         VJE     .75         
         CJC    0            
         VJC     .75         
         MJC     .33         
        XCJC    1            
         CJS    0            
         VJS     .75         
          KF    0            
          AF    1            
          CN    2.42         
           D     .87         


**** 08/18/21 21:50:46 ******* PSpice Lite (March 2016) ******* ID# 10813 ****

 ** Profile: "SCHEMATIC1-ppp"  [ E:\Semester 6\PE LAB\LAB09 Open Ended\open-pspicefiles\schematic1\ppp.sim ] 


 ****     Voltage Controlled Switch MODEL PARAMETERS


******************************************************************************




               X_U1.x1.Sbg1    
         RON    1            
        ROFF    1.000000E+06 
         VON    3.7          
        VOFF    3            


**** 08/18/21 21:50:46 ******* PSpice Lite (March 2016) ******* ID# 10813 ****

 ** Profile: "SCHEMATIC1-ppp"  [ E:\Semester 6\PE LAB\LAB09 Open Ended\open-pspicefiles\schematic1\ppp.sim ] 


 ****     INITIAL TRANSIENT SOLUTION       TEMPERATURE =   27.000 DEG C


******************************************************************************



 NODE   VOLTAGE     NODE   VOLTAGE     NODE   VOLTAGE     NODE   VOLTAGE


(N11683)-461.2E-21 (N11747)-2.141E-18 (N11751)-2.141E-18 (N12060)    0.0000     

(N12496)    0.0000 (N14220) 1.006E-18 (N18082) 9.474E-21 (X_U1.x1.4) 348.1E-12  

(X_U1.x1.5) 348.1E-12                 (X_U1.x1.6) 1.027E-18                     

(X_U1.x1.7) 1.006E-18                 (X_U1.x1.8) 1.006E-18                     

(X_U1.x1.9) 1.006E-18                 (X_U1.x1.55) 1.146E-18                    

(X_U1.x1.56) 1.150E-18                (X_U1.x1.100)    7.4000                   

(X_U1.x1.101) 7.399E-06               (X_U1.x1.102)-470.7E-21                   

(X_U1.x1.105)     .0166               (X_U1.x1.106) 348.1E-12                   

(X_U1.x1.107)    1.0000               (X_U1.x1.108)   -1.0000                   

(X_U1.x1.200) 1665.0000               




    VOLTAGE SOURCE CURRENTS
    NAME         CURRENT

    V_V3         0.000E+00
    X_U1.x1.Vbg  -7.400E-06
    X_U1.x1.Vgainf  -1.665E+03
    X_U1.x1.Vl1  -6.185E+02
    X_U1.x1.Vl2  -6.185E+02

    TOTAL POWER DISSIPATION   2.77E+06  WATTS



          JOB CONCLUDED

**** 08/18/21 21:50:46 ******* PSpice Lite (March 2016) ******* ID# 10813 ****

 ** Profile: "SCHEMATIC1-ppp"  [ E:\Semester 6\PE LAB\LAB09 Open Ended\open-pspicefiles\schematic1\ppp.sim ] 


 ****     JOB STATISTICS SUMMARY


******************************************************************************



  Total job time (using Solver 1)   =         .44
